Index,Frequency (Hz),Z' (Ω),-Z'' (Ω),Z (Ω),-Phase (°),Time (s)
1,1000000,1.29733307489618,-1.49191276400976,1.97708796026753,-48.9905276041251,14.4147699636062
2,794330,0.925979922473563,-1.35976615177532,1.6451148301374,-55.7457363393685,16.2664009589313
3,630960,0.671834428044214,-1.17925735085268,1.35720646853955,-60.3294127123743,19.6815809503088
4,501190,0.48445851282381,-0.999999017744627,1.1111696927732,-64.1517148558741,23.0421549418242
5,398110,0.353626352096747,-0.834081497401174,0.905948972737558,-67.0244647361348,27.6861779300991
6,316230,0.263453194133702,-0.687246483998787,0.73601312166832,-69.0258735632888,30.8975959219911
7,251190,0.200759491642768,-0.560715929513867,0.595572604386117,-70.3005323084627,34.0149919141204
8,199530,0.16056156642316,-0.456630136248957,0.484036256847563,-70.6271632048748,35.7828889096569
9,158490,0.13173914402472,-0.37056229736048,0.393283127394811,-70.4291170465654,37.6104369050428
10,125890,0.111737989996717,-0.300351906915983,0.320463174790137,-69.5936124482716,39.3202989007258
11,100000,0.0974788407983286,-0.243015848972586,0.261837406142156,-68.1432261325729,42.5852738924825
12,79433,0.0873898807866795,-0.196673935275956,0.215215306334938,-66.0425608127118,44.2190608883576
13,63096,0.0799516307508972,-0.158912654404784,0.177891806977449,-63.2922620986919,45.9494668839887
14,50119,0.0745136069080828,-0.128422463478294,0.148474262888509,-59.8767271113358,47.7555948794287
15,39811,0.0704195527997434,-0.103565593723061,0.125238754464128,-55.7862086987454,49.5072428750062
16,31623,0.0674010073890582,-0.0834037528218325,0.107233771647859,-51.0573106848468,51.3184728704333
17,25119,0.0648698455853421,-0.0667738259944109,0.0930958683519199,-45.8286189134,53.0699068660114
18,19953,0.0632623170280771,-0.0535451879114369,0.0828806847476058,-40.2445566521035,54.9069338613733
19,15849,0.0620837586045681,-0.0428008962159686,0.0754076242787186,-34.5826004748385,56.6424428569916
20,12589,0.0612714138554147,-0.0341064555077025,0.0701244355637918,-29.1023017216313,58.4696258523784
21,10000,0.0606782314917081,-0.0270519848920578,0.0664353645550428,-24.0285961895069,61.6160418444344
22,7943.3,0.0603232822361281,-0.0213175304586944,0.0639791800869387,-19.4628023233813,63.2352498403463
23,6309.6,0.060231822824997,-0.0167000709478935,0.0625041186681846,-15.4967388622644,64.9552688360037
24,5011.9,0.0598422866772806,-0.012859386708906,0.0612083580999771,-12.1277440570272,66.700669831597
25,3981.1,0.0599385700404338,-0.00981983900619557,0.0607376441475926,-9.30420943860715,68.4373268272124
26,3162.3,0.0600873628872349,-0.00733567721254173,0.0605334893997435,-6.96042694353943,70.1380278229185
27,2511.9,0.060207145457451,-0.00527437813739611,0.060437731830959,-5.00654987685801,71.8575618185771
28,1995.3,0.0604031644480201,-0.00357221539622394,0.0605087018384264,-3.3845040010788,73.5788958142311
29,1584.9,0.0606378076361715,-0.0021556995357361,0.0606761135489882,-2.036031586632,75.1752298102008
30,1258.9,0.0609119150678733,-0.000966919580032046,0.0609195890556565,-0.909440432670062,76.8815788058927
31,1000,0.0614089239361711,7.65098157258579E-05,0.0614089715982148,0.0713851828559859,78.596060801564
32,794.33,0.0618664230778196,0.00092819488342875,0.0618733856370038,0.859556071756393,80.4486807968866
33,630.96,0.0620767737768814,0.00164559589957329,0.0620985815330012,1.51850068269447,82.162755792559
34,501.19,0.062609480730345,0.00228463177494438,0.0626511501863336,2.08980659378623,83.8893097881999
35,398.11,0.0631609540128978,0.00284099789450243,0.063224816178902,2.5754446906514,85.5995627838819
36,316.23,0.0637961053703388,0.00333921302645843,0.063883436069606,2.99623899800529,87.3575277794434
37,251.19,0.0644964134983492,0.00377844582832417,0.0646069965795317,3.35277309451982,89.1085697750225
38,199.53,0.0651548662650285,0.0041645989930513,0.0652878279833743,3.65728295664138,90.8353997706627
39,158.49,0.0659192635650797,0.00451010347154559,0.0660733709014947,3.91399712767746,92.5753047662698
40,125.89,0.0667150849541529,0.00481527223104971,0.0668886343641351,4.12825944201744,94.3897517616888
41,100,0.067490629511045,0.00508510380293905,0.0676819278129975,4.30882814207222,96.170415757193
42,79.433,0.0683120789477493,0.00531356880512234,0.0685184219287798,4.44772425375976,97.9764277526333
43,63.096,0.0691337448034805,0.00551745968733255,0.0693535653874702,4.56301808112435,99.865839747863
44,50.119,0.069923490847317,0.00571357232088368,0.0701565355540081,4.67136149833203,101.937783742632
45,39.811,0.0707170854160963,0.00591603454089745,0.0709641151176885,4.78210255044883,103.884493737717
46,31.623,0.0715074546560189,0.00614342712567306,0.0717708699141306,4.91040041996215,105.917937732583
47,25.119,0.0723389443356849,0.00641960065226411,0.0726232341619117,5.07133467137197,107.997739727332
48,19.953,0.0730858088651674,0.00673367672873621,0.0733953531210451,5.26401934980362,110.297385721526
49,15.849,0.0739270887730241,0.00716553094704541,0.0742735436626505,5.53621396618471,112.638320715616
50,12.589,0.0746803239117481,0.00770334929815608,0.0750765767065402,5.88928769245697,115.095459709412
51,10,0.0755227533792716,0.00839884901909689,0.0759883342548832,6.34576123870279,117.789821702609
52,7.9433,0.0764316303763555,0.0092790036335717,0.0769928180444103,6.92198616102992,120.536999695673
53,6.3096,0.0774084109970849,0.01036088210523,0.0780987193947,7.62355719777061,123.347836688577
54,5.0119,0.0785885163762263,0.0116831299432602,0.0794521895953,8.45577891136136,126.196850681384
55,3.9811,0.0799481803952918,0.0132492700732359,0.0810386000989137,9.40971975168503,129.025992674241
56,3.1623,0.0815785804983187,0.0150583501593382,0.0829567279106517,10.4583395753407,131.989435666759
57,2.5119,0.0835966630227569,0.0171076557974832,0.0853292092745827,11.5656161567194,135.010325659132
58,1.9953,0.0859932811673895,0.0193242010977806,0.0881377850527296,12.6649802029141,138.085684651367
59,1.5849,0.0889487445282938,0.0216669328317616,0.0915496320664138,13.6900076364255,141.223318643445
60,1.2589,0.0923973800049817,0.0240365655978278,0.0954726783824758,14.58191016134,144.558987635024
61,1,0.0963862624015273,0.0262979095284243,0.0999094171001977,15.2610647276327,148.217524625787
62,0.79433,0.100930390507215,0.0283385772669122,0.104833289986777,15.6833336197528,151.924300616428
63,0.63096,0.106420917043113,0.0302750363075125,0.110643524020696,15.8801986720778,155.875086606453
64,0.50119,0.111641569000711,0.0317340515216493,0.116064163094899,15.8677698104044,160.144306595674
65,0.39811,0.11718375313598,0.03271003790331,0.121663382242441,15.5962561430854,164.825805583855
66,0.31623,0.122834005991504,0.0333746333738688,0.127287309582539,15.2005962247999,169.977710570848
67,0.25119,0.128289519013469,0.0336884461212958,0.132639029289175,14.713504571478,175.817982556102
68,0.19953,0.13383440663525,0.0336694594806535,0.138004640868084,14.1211721425768,182.42534553942
69,0.15849,0.139338824118478,0.033679740799795,0.143351431269666,13.5883966818418,190.112051520013
70,0.12589,0.144199868586671,0.0336344890602745,0.148070526961847,13.1294450086555,199.108621497299
71,0.1,0.14933523257008,0.0337928448792946,0.153110966464836,12.7506320250768,209.740159470457
