Index,Frequency (Hz),Z' (Ω),-Z'' (Ω),Z (Ω),-Phase (°),Time (s)
1,1000000,1.16380445966004,-1.4001277835202,1.82065884517385,-50.2661993846165,33.9177579143659
2,794330,0.824014254695068,-1.26505054985454,1.50975242527639,-56.9210405684729,35.7801049096639
3,630960,0.595131838103369,-1.08949365449799,1.24144203566485,-61.3545913596978,39.1888249010577
4,501190,0.427525612228429,-0.918801223013097,1.01339717609714,-65.0470616161897,42.499930892698
5,398110,0.311752387063687,-0.76287943456294,0.82412049029191,-67.7725104494476,47.1360788809928
6,316230,0.23269936938838,-0.625731062142809,0.66759895045163,-69.600637627686,50.2729228730731
7,251190,0.178384780467003,-0.508623210109249,0.538997866196239,-70.6731661060833,53.4331668650942
8,199530,0.144028575177541,-0.412642203316147,0.437055852752571,-70.7589770916299,55.14985386076
9,158490,0.119639758761796,-0.333534102476336,0.354342587605943,-70.2669259873221,56.9732588561563
10,125890,0.103016611033723,-0.269225871724178,0.288262019965373,-69.0611458133793,58.7183748517504
11,100000,0.0914112203456965,-0.217180574399311,0.235634066088722,-67.1737931521451,61.9276248436478
12,79433,0.0833134498401088,-0.175088639972641,0.193899878214839,-64.5532205863799,63.6574968392803
13,63096,0.0775693162339341,-0.141268287595466,0.161163668055661,-61.2291544141781,65.4792288346808
14,50119,0.073312049825736,-0.113965289786381,0.135509202365541,-57.2474708580993,67.3321248300027
15,39811,0.0700784395285458,-0.0919863896018767,0.115639455026147,-52.6985853645047,69.060487825639
16,31623,0.0675647151799933,-0.0742200006416053,0.100367321537408,-47.6874552825304,70.8018908212424
17,25119,0.0652822859638457,-0.0595784677867531,0.088381959044154,-42.3844650266609,72.6150568166646
18,19953,0.0637579354538538,-0.0478976098474115,0.079744939415819,-36.9153970548431,74.4379168120623
19,15849,0.0626256990340473,-0.0383756643697398,0.073448415880276,-31.4990599356244,76.159386807716
20,12589,0.0617619585819911,-0.0305638994162467,0.0689107500714514,-26.3292475110463,77.911261803293
21,10000,0.0611248422925904,-0.0241834044374828,0.065734948052622,-21.5857103137793,81.1443437951302
22,7943.3,0.0607548400455679,-0.0189194620304594,0.0636325123854506,-17.2969365897295,82.7797357910013
23,6309.6,0.0606349609809558,-0.0146426890298733,0.0623779354835314,-13.5763845277226,84.516260786617
24,5011.9,0.06034777954534,-0.0110879427457671,0.0613579413799581,-10.4110697493403,86.243132782257
25,3981.1,0.0604744388707915,-0.0082355929015719,0.0610326367378759,-7.75500723710936,87.9573407779291
26,3162.3,0.0607026664579791,-0.00589165719968948,0.0609879114224066,-5.54362899052776,89.6674377736115
27,2511.9,0.0609741732004482,-0.00392458757162422,0.0611003452124913,-3.68274862171959,91.3892167692644
28,1995.3,0.0612294687254719,-0.00227816037262814,0.0612718357411214,-2.13081697867388,93.0955747649563
29,1584.9,0.0615987908546278,-0.000898967867740349,0.0616053502382659,-0.836110705917343,94.7718427607241
30,1258.9,0.0620373773878828,0.000267432801960092,0.0620379538143398,0.24699103324629,96.4705547564353
31,1000,0.0626909715606938,0.00134133426554731,0.0627053194939285,1.22571187238824,98.1918637520894
32,794.33,0.063267399797509,0.00218264741001826,0.0633050379263318,1.97585024732963,100.013901747489
33,630.96,0.0635930080720256,0.00289545913599679,0.0636588906536781,2.60693896980136,101.723199743174
34,501.19,0.0642677768231923,0.00354565066127921,0.0643655092142327,3.15780461745529,103.509489738664
35,398.11,0.0649729133924127,0.00413606804855728,0.0651044279108591,3.64243953873806,105.205613734381
36,316.23,0.065664283768011,0.00468210496223555,0.0658309977870855,4.07849718885484,106.923486730044
37,251.19,0.0664438917745498,0.00521570726283579,0.066648288473146,4.48839553373968,108.681449725606
38,199.53,0.0672677065852702,0.0057534201499793,0.0675133038197969,4.88862167132056,110.425094721203
39,158.49,0.0681405911044027,0.00630792697766207,0.0684319377104939,5.28892485158627,112.172086716793
40,125.89,0.0690744760462438,0.00689302089156052,0.0694175552585554,5.69874472875351,113.958576712282
41,100,0.0700771279721476,0.00751152974197265,0.0704785566246166,6.11814358695916,115.767471707715
42,79.433,0.0711415153259345,0.00814587696532625,0.071606358058516,6.53205872503736,117.592875703107
43,63.096,0.0723378756522421,0.00881679087391964,0.07287320533086,6.94913222974396,119.46497369838
44,50.119,0.0735930243174913,0.00951069615438572,0.0742050306214876,7.363729780111,121.538530693145
45,39.811,0.0749194876592659,0.0102439758916598,0.0756165899336634,7.78594882142622,123.489587688219
46,31.623,0.0763842744455768,0.0110282715101847,0.0771762927010591,8.21552613000488,125.513779683108
47,25.119,0.077967600396424,0.0118831433200608,0.0788679643882202,8.66583474727752,127.573839677907
48,19.953,0.079674920922847,0.0127864073837784,0.0806943940918194,9.11721384762899,129.889994672059
49,15.849,0.0815883252312937,0.0137815389746214,0.0827440972550693,9.58764681905322,132.232523666145
50,12.589,0.0836643699260791,0.0148200066005883,0.084966813467196,10.0449725238579,134.705769659901
51,10,0.086022735208532,0.0158750261099686,0.0874752960940939,10.4559837389185,137.416959653056
52,7.9433,0.0886427262966253,0.0168733151489708,0.090234370887234,10.7774280710891,140.130231646205
53,6.3096,0.0915651848340234,0.0177485721437491,0.0932694745714306,10.9699113771592,142.966419639044
54,5.0119,0.094688721038299,0.0184008960893155,0.0964600791455128,10.9972439518714,145.735808632052
55,3.9811,0.0980402811723181,0.018781819835386,0.0998231109947796,10.8448992799633,148.56464362491
56,3.1623,0.101343580314288,0.0188308000332109,0.10307822418343,10.5261670429977,151.47984061755
57,2.5119,0.105199838871485,0.0186667679429788,0.106843129512493,10.0618938810234,154.483292609967
58,1.9953,0.108412010747626,0.0181190774911891,0.109915717909111,9.4882414086517,157.595628602109
59,1.5849,0.111459149179116,0.0173342644697889,0.112799018880667,8.8398945541847,160.780162594069
60,1.2589,0.114199899109822,0.0163909959723088,0.115370194182283,8.1678228256218,164.082858585731
61,1,0.116634365962713,0.015373107448262,0.117643137310001,7.50864416153669,167.764955576434
62,0.79433,0.118793379854062,0.0143595213358328,0.119658108585026,6.89236703507396,171.4618875671
63,0.63096,0.120640076588679,0.0134437524530769,0.121386830254941,6.35862804154713,175.34746155729
64,0.50119,0.122280849404877,0.0127490025413732,0.12294365862857,5.95215375485851,179.615219546515
65,0.39811,0.123646715053673,0.0122107358168172,0.12424818796567,5.63995954256932,184.216903534897
66,0.31623,0.124973281626805,0.0119212327404497,0.125540578740998,5.44897144402665,189.393525521827
67,0.25119,0.126275250880938,0.0119851506896445,0.126842748401701,5.42186682521665,195.203144507159
68,0.19953,0.127485635538944,0.0121651581046625,0.12806474276896,5.45087377237653,201.814182490468
69,0.15849,0.128650335387434,0.0128247276765353,0.129287982563255,5.69281967633251,209.490708471087
70,0.12589,0.130067006121093,0.0138508051910511,0.130802411620524,6.07850639280384,218.452297448461
71,0.1,0.131515152305862,0.0150378686497197,0.132372099702167,6.52305522783886,229.047075421712
