Index,Frequency (Hz),Z' (Ω),-Z'' (Ω),Z (Ω),-Phase (°),Time (s)
1,1000000,1.22611472267117,-1.49493019876734,1.93343570163002,-50.6420153751698,14.363356963736
2,794330,0.865635486793452,-1.34758142612032,1.60165554849369,-57.284840402408,16.2008279590968
3,630960,0.622018989814886,-1.16384390064314,1.31963640778609,-61.8776243049308,19.6183189504685
4,501190,0.442918610393346,-0.98238568921607,1.07761706454998,-65.7312816409351,22.9461559420665
5,398110,0.318912581739663,-0.815692826763106,0.875819628933174,-68.6459220634639,27.5553339304295
6,316230,0.234246177553223,-0.669147147090941,0.708963451919943,-70.7065459298991,30.6792419225424
7,251190,0.176130497938064,-0.544326480639723,0.572112986943608,-72.0697103252153,33.7733099147306
8,199530,0.139154201914495,-0.4417203473185,0.463120672336743,-72.5141221501449,35.4959639103813
9,158490,0.113031152403265,-0.357543589776537,0.374984613022858,-72.4565611388936,37.3590899056774
10,125890,0.0950824597819163,-0.288727061565726,0.303980246461112,-71.7724554990555,39.0682259013622
11,100000,0.0826108517941728,-0.233159652203503,0.247362034778616,-70.4902426308397,42.3060928931874
12,79433,0.0738413111259718,-0.188197667898716,0.202165529780223,-68.5769240887769,44.0304558888338
13,63096,0.0675000327083183,-0.152020374095042,0.166332343684626,-66.0578386752841,45.8228098843085
14,50119,0.0627906515085108,-0.122881481416458,0.137994653490512,-62.9336277285265,47.6352158797326
15,39811,0.0591630300256938,-0.0993797624745358,0.115657257927535,-59.2337006440567,49.4846878750632
16,31623,0.0563509530592768,-0.0803861080276827,0.098170037559976,-54.969405090325,51.2061888707168
17,25119,0.0538485943799006,-0.0646645997252074,0.0841497568285991,-50.2146046219469,53.0284248661161
18,19953,0.0521462610827974,-0.0521658575195062,0.0737598077252151,-45.0107637839088,54.7649398617318
19,15849,0.0508252449844323,-0.0419807253753924,0.0659210651519807,-39.5560853026341,56.4924718573702
20,12589,0.049875355615315,-0.0336881948066347,0.0601867557447974,-34.0369689847314,58.2144388530227
21,10000,0.0489684775582136,-0.0268881271219937,0.05586486529562,-28.7707714727539,61.3686418450591
22,7943.3,0.0485338352766026,-0.0214034518468012,0.0530437641727539,-23.7975094228934,63.0191838408919
23,6309.6,0.0482891149707585,-0.0169738669551892,0.0511854548096586,-19.3668315593281,64.7354238365588
24,5011.9,0.0478646230420611,-0.0133182960297365,0.0496829865053854,-15.5491868895375,66.547380831984
25,3981.1,0.0477961044364505,-0.0104466714563104,0.0489244370822616,-12.3291038089189,68.2673248276416
26,3162.3,0.0478294087804489,-0.00814466488897044,0.0485179132943794,-9.66395480291253,69.9751308233298
27,2511.9,0.0478692360879482,-0.00628388981728623,0.0482799237248726,-7.47856882554077,71.7067518189579
28,1995.3,0.0479136167030556,-0.00475534264327,0.0481490181542908,-5.6679443658454,73.4087508146607
29,1584.9,0.0479507750140117,-0.00350671720749212,0.0480788299568292,-4.18268634499696,75.1029048103834
30,1258.9,0.0480692947694366,-0.00249696669984918,0.0481341037345783,-2.97356522806235,76.8242678060374
31,1000,0.0482675336539512,-0.00157241613662802,0.0482931392388406,-1.8658703040866,78.5416008017015
32,794.33,0.0484510828755815,-0.000914245024423329,0.0484597077558373,-1.08101124970267,80.3836677970507
33,630.96,0.0484131269258923,-0.00037267917703834,0.0484145613272655,-0.441048194009802,82.0976577927233
34,501.19,0.0485963542994811,8.39000313415161E-05,0.0485964267247701,0.0989192088585866,83.8235267883659
35,398.11,0.0488383444389867,0.000469626784756298,0.0488406023392225,0.550936026138331,85.5200397840827
36,316.23,0.0490834581518112,0.000795593084918167,0.0490899056069308,0.928625166127922,87.2620137796846
37,251.19,0.0493904653153742,0.00106669089940395,0.0494019826883907,1.23723043509605,89.0151487752584
38,199.53,0.0496775443197123,0.0012868823421724,0.0496942096808026,1.48389864392512,90.743786770894
39,158.49,0.0500086207689875,0.00146105253594744,0.0500299592817065,1.67347822536765,92.4893117664869
40,125.89,0.0503439755527317,0.00158855379127476,0.050369031930362,1.80731135130756,94.3041957619048
41,100,0.0507223618842129,0.00167742767954638,0.050750091218964,1.89412535854454,96.0804907574201
42,79.433,0.0510539221819168,0.00170482708524544,0.0510823786206927,1.91254874064246,97.9024437528201
43,63.096,0.0513510281692288,0.00169105563186892,0.0513788649464642,1.88614234152215,99.7705557481036
44,50.119,0.0516617730465447,0.00164542820155408,0.0516879698602988,1.82425469835377,101.846545742862
45,39.811,0.0519591829418112,0.00157354812594881,0.0519830043926405,1.73463311283707,103.791077737953
46,31.623,0.052177142130717,0.0014814936123598,0.0521981703151797,1.62639286371754,105.836241732789
47,25.119,0.0523980186617776,0.00138063594871535,0.0524162047014364,1.50933786972624,107.91936772753
48,19.953,0.0526138895087905,0.00126780267530503,0.0526291620004226,1.38035201518022,110.221616721717
49,15.849,0.0528061397919057,0.00117052623187858,0.0528191114217363,1.26983778792239,112.574798715776
50,12.589,0.0529327321066827,0.00107679741941348,0.052943683485004,1.16539306939698,115.040409709551
51,10,0.0530594030451999,0.000994473001464287,0.0530687217489135,1.07374813823195,117.735896702745
52,7.9433,0.0531256749321001,0.000929474614936335,0.0531338052472339,1.00233154399679,120.476328695827
53,6.3096,0.0532414348574998,0.00087933528491458,0.0532486959110614,0.946210793029186,123.29124268872
54,5.0119,0.0533155122457489,0.000845798326800858,0.0533222207042825,0.908865125705584,126.180196681426
55,3.9811,0.0533960700746663,0.000827235720794941,0.0534024776424881,0.887580751236269,129.001654674302
56,3.1623,0.0534580333020492,0.000825099392466542,0.0534644004317869,0.884262971982296,131.95715666684
57,2.5119,0.0535185699518723,0.000842332447680214,0.0535251983055259,0.901707756770092,134.9436176593
58,1.9953,0.0535801461214444,0.000880682462164054,0.0535873834031342,0.941670533260806,138.005706651569
59,1.5849,0.0536396596567119,0.000939438884163305,0.053647885638718,1.00336916902754,141.138091643661
60,1.2589,0.0536976859411365,0.00102130212461223,0.053707397381205,1.08960462532171,144.42161163537
61,1,0.0537588421804471,0.00112417061291054,0.0537705948651226,1.1979581940156,148.066960626167
62,0.79433,0.0538369212506234,0.00127975795081093,0.0538521296715226,1.36172205576841,151.707829616975
63,0.63096,0.0539281313413025,0.00146096876783438,0.0539479172879302,1.55182226884348,155.588208607178
64,0.50119,0.0540069505241554,0.00169247155526357,0.054033463380427,1.79494954780999,159.855686596403
65,0.39811,0.054143786901643,0.0019673958146213,0.0541795192516685,2.08101263996906,164.520091584627
66,0.31623,0.05426101593489,0.00231574411638425,0.054310408957206,2.44377835647104,169.709564571525
67,0.25119,0.054381118237882,0.00272320126879421,0.054449259370104,2.8667618532563,175.554531556767
68,0.19953,0.0545886872186103,0.00324399820200392,0.0546849915112535,3.40087080980196,182.223853539929
69,0.15849,0.0547628281235524,0.00385811861505896,0.0548985648568121,4.0299100670983,189.970130520372
70,0.12589,0.0549874486259341,0.00457155664645092,0.0551771568365158,4.75253741607023,198.905767497811
71,0.1,0.0551566695916543,0.0055594732746751,0.0554361429352254,5.75564426983313,209.563910470902
