Index,Frequency (Hz),Z' (Ω),-Z'' (Ω),Z (Ω),-Phase (°),Time (s)
1,1000000,1.14868929799866,-1.35815735200033,1.77878568021255,-49.7764469552479,14.4845329634301
2,794330,0.819295759871061,-1.22854799597146,1.47667725673154,-56.301417177601,16.335428958757
3,630960,0.597331933418041,-1.05964388796757,1.21640889835119,-60.5896060017827,19.7633169501024
4,501190,0.434429334403068,-0.895861067313646,0.995638437646035,-64.1298914736721,23.0716229417498
5,398110,0.321310982225287,-0.745929589817382,0.812189448505524,-66.6959214899603,27.6710199301374
6,316230,0.243362642191339,-0.613827450371575,0.660310165334458,-68.3732826274067,32.1196499189057
7,251190,0.189185746998375,-0.501532159931962,0.536027755170712,-69.3327428586601,35.2328059110457
8,199530,0.154141543603918,-0.409223663236831,0.437291232495656,-69.3602035256792,36.9445809067239
9,158490,0.128547759065811,-0.333198521905557,0.357135522401356,-68.903420101016,38.788295902069
10,125890,0.110304404714109,-0.271026136872261,0.29261276214006,-67.8542631877625,40.51479589771
11,100000,0.096982424409373,-0.220481030477945,0.240868170261112,-66.2568694721798,43.8258638893503
12,79433,0.0871783457712003,-0.17908292492026,0.199175194161819,-64.0429797858925,45.5612798849688
13,63096,0.0799280002855302,-0.145550703847529,0.16605268025586,-61.2269638718778,47.3033908805704
14,50119,0.0743748269807216,-0.118097133561201,0.139565568260171,-57.798230791908,49.1206748759822
15,39811,0.0701420158007397,-0.0958001997353169,0.118733233131747,-53.7895371373186,50.9876148712686
16,31623,0.0668934161762751,-0.0776067441152375,0.102457483181563,-49.2401853805507,52.732211866864
17,25119,0.0640955029589022,-0.062485202930765,0.0895133179189193,-44.2711494379981,54.5493468622761
18,19953,0.0621978578558699,-0.0503741657464447,0.0800383039332374,-39.0040798289253,56.3741668576689
19,15849,0.0607875758607833,-0.0404826171347231,0.073034044589541,-33.6623690989003,58.1121568532809
20,12589,0.0597449172634343,-0.0323972140497256,0.0679634800241891,-28.4691578469284,59.8419488489136
21,10000,0.0588533712869941,-0.025774737598771,0.0642499526080003,-23.6509363421073,63.070634840762
22,7943.3,0.0584003832956125,-0.0203849047163751,0.0618558736852868,-19.2417604470827,64.7104378366219
23,6309.6,0.0582171019609984,-0.0160403084566509,0.0603864426516564,-15.4042507997678,66.4470268322374
24,5011.9,0.0578268551378072,-0.0124393756060358,0.0591496681359835,-12.1401321414324,68.2746198276232
25,3981.1,0.0577998475130897,-0.00957700097270446,0.0585878939727961,-9.4080062839586,70.0247688232045
26,3162.3,0.0579006608431428,-0.00726521646709421,0.0583546904403269,-7.15193924451026,71.737195818881
27,2511.9,0.0580034909743627,-0.00535782952629375,0.0582504189036079,-5.27748184072531,73.5542548142934
28,1995.3,0.0581365957527014,-0.00379101684780249,0.058260068438454,-3.73090605575402,75.2746238099498
29,1584.9,0.0583578639146278,-0.00251561369125531,0.0584120586259537,-2.46830266206198,76.9846538056324
30,1258.9,0.0585241091197777,-0.00147039614596749,0.0585425777796787,-1.4392320425098,78.6804788013509
31,1000,0.0589003435071707,-0.000539947643682992,0.0589028183427637,-0.525223669994861,80.4055007969956
32,794.33,0.0592086436953722,0.000143235189048667,0.0592088169495466,0.138607393929383,82.2569307923212
33,630.96,0.059290229237987,0.000694898564176233,0.0592943013038145,0.671492293513506,83.9730627879884
34,501.19,0.0596250504083759,0.00116551725785084,0.0596364407613308,1.11984335130935,85.7093607836047
35,398.11,0.0599520949634026,0.00156606060581933,0.0599725456881892,1.49633240907251,87.460272779184
36,316.23,0.0603396645362873,0.00191879873148615,0.0603701656857395,1.82138953209974,89.2295297747171
37,251.19,0.0607302325612728,0.0022371041481556,0.0607714224114919,2.10963619809849,90.9766327703061
38,199.53,0.0611467030000604,0.00253553146812993,0.061199250057525,2.37448735017962,92.7130957659219
39,158.49,0.0615815297774661,0.00282316018643999,0.0616462086682648,2.62484525359225,94.4692377614881
40,125.89,0.0620993570874717,0.0031082886402927,0.0621770987498507,2.86546149012184,96.291637756887
41,100,0.062601315649456,0.00339236414822358,0.0626931643447432,3.10182339206578,98.0881877523511
42,79.433,0.0631485336521385,0.00365186778844888,0.0632540389284319,3.30971785641461,99.9165037477351
43,63.096,0.06377568387749,0.0038987333758511,0.0638947413796903,3.49825058059891,101.845974742864
44,50.119,0.064379141178854,0.00411315161942048,0.0645104009844239,3.65563059887134,103.927552737608
45,39.811,0.0651095711146584,0.00429454389965658,0.0652510487121919,3.77369000467886,105.896577732637
46,31.623,0.0658797003921403,0.00442177012370562,0.0660279257192369,3.83986795900614,107.944375727467
47,25.119,0.0666548762279758,0.00448865728779424,0.0668058423284524,3.85258247344051,110.023752722217
48,19.953,0.0673946404593184,0.00446521116300501,0.0675423990791785,3.79057424196827,112.344549716357
49,15.849,0.0682215265091777,0.00438542336461915,0.0683623333227398,3.67803280489444,114.712896710378
50,12.589,0.0689944146133449,0.00424362307745067,0.0691247971762783,3.51964400764686,117.176003704159
51,10,0.0696737212138119,0.00404229162657815,0.0697908844289445,3.32043280016798,119.870503697356
52,7.9433,0.0703021598218894,0.00380398471642016,0.0704049996473634,3.0972012342305,122.614179690429
53,6.3096,0.0708494448864374,0.00354394276091096,0.0709380248597953,2.86359146259774,125.42996768332
54,5.0119,0.0713343233098332,0.00328475783312956,0.0714099104893299,2.63645748077695,128.267693676155
55,3.9811,0.0717533303361247,0.00303880045956598,0.0718176491021399,2.42506457374723,131.092462669023
56,3.1623,0.0721360863139134,0.00281699914660976,0.0721910689273983,2.23633134846513,134.054420661545
57,2.5119,0.0724297257736829,0.00263305563904228,0.0724775700313497,2.08197074190875,137.074808653919
58,1.9953,0.0726707735874156,0.00249643383799222,0.0727136405064476,1.96748830407218,140.172766646098
59,1.5849,0.0729693091387282,0.00240308710406,0.0730088686654778,1.88623142761019,143.382442637994
60,1.2589,0.0731624417769097,0.00235656518008395,0.0732003844676221,1.84486152304045,146.703793629609
61,1,0.0733401942679926,0.00236326761095258,0.0733782606026327,1.84562400878753,150.367159620359
62,0.79433,0.0735644823546576,0.00243512316873764,0.0736047749059506,1.89590614063706,154.09779661094
63,0.63096,0.073725122741639,0.00256225174981042,0.0737696337072318,1.99046325166054,157.96771760117
64,0.50119,0.073955691846054,0.00278431828146626,0.0740080859414768,2.15607985777965,162.245503590369
65,0.39811,0.0741672568682823,0.00304623260167458,0.0742297886594679,2.35195736689275,166.91115757859
66,0.31623,0.074386762890574,0.00340767293990695,0.0744647750832825,2.62289771189965,172.117407565445
67,0.25119,0.0746501385627079,0.00393942431683531,0.0747540116072681,3.02080095993676,177.93775855075
68,0.19953,0.0748950146542026,0.00445230609102336,0.0750272367182837,3.4020753001716,184.561560534027
69,0.15849,0.0751865352020785,0.00519371032263176,0.0753657064095388,3.95158137986334,192.27604651455
70,0.12589,0.0754590091672685,0.0061282911932504,0.0757074502110273,4.64300155739648,201.297193491773
71,0.1,0.0759488763965505,0.00726113287944577,0.0762951890789418,5.46119475534594,211.838415465159
