Index,Frequency (Hz),Z' (Ω),-Z'' (Ω),Z (Ω),-Phase (°),Time (s)
1,1000000,1.26506121305778,-1.46232178253109,1.93358859855144,-49.1367685831374,30.7170729224468
2,794330,0.901347577498928,-1.33341932286258,1.60948269516839,-55.9426008927088,32.5398079178449
3,630960,0.652146508147166,-1.15685518402324,1.32800940692828,-60.5890201464039,35.9476639092409
4,501190,0.468395107058875,-0.982432636023422,1.08837854657312,-64.5095611075349,39.2641929008674
5,398110,0.339614650307303,-0.819379615469931,0.886972978703976,-67.4870792657669,43.9060238891479
6,316230,0.251122635490253,-0.675030198381284,0.720227982504322,-69.5939488441343,47.0400858812352
7,251190,0.189746773255295,-0.550913781452193,0.582674722769704,-70.9951703393086,50.1517258733791
8,199530,0.150385259164894,-0.448769412193691,0.473296642175669,-71.4736974398909,51.8741838690303
9,158490,0.122229657194564,-0.364571386752974,0.384515780088265,-71.465269798069,53.7023308644146
10,125890,0.102595250517366,-0.295982618769222,0.313259470794113,-70.8823573251438,55.4049548601159
11,100000,0.0885187163062356,-0.240357477142389,0.256139180827061,-69.7822851671292,58.6260228519835
12,79433,0.0781519714287887,-0.195129314687691,0.210197954530233,-68.1732199400913,60.2958988477675
13,63096,0.0703839171021446,-0.15863107582969,0.173544559135475,-66.0733473585446,62.112503843181
14,50119,0.064314730722347,-0.128803299535974,0.143967616356047,-63.4658886428687,63.9408198385649
15,39811,0.0596312911757989,-0.104553649075993,0.120363434739953,-60.302091164396,65.7684258339507
16,31623,0.0559737248687509,-0.0846445042351922,0.101477829957602,-56.5241298508424,67.5163238295377
17,25119,0.0529520289290498,-0.0680943903317536,0.0862598595080942,-52.1304034146637,69.2421858251803
18,19953,0.050925779043323,-0.0548488296072153,0.0748453677955469,-47.1240566446324,71.0750498205527
19,15849,0.0494404556134169,-0.0439990064203012,0.0661836174384262,-41.6671431702506,72.9182608158991
20,12589,0.0484005317054559,-0.03516973288235,0.0598291031220316,-36.0036322505024,74.7362338113091
21,10000,0.0475995275509153,-0.0279702290996926,0.0552091363721589,-30.4391631084479,77.9510288031926
22,7943.3,0.0471276868634926,-0.0221056359979199,0.0520545676379695,-25.1293186445292,79.6554857988892
23,6309.6,0.0468795227934502,-0.0173686758800777,0.0499936051827512,-20.3294665558157,81.3773657945419
24,5011.9,0.0465378887991375,-0.013463179654054,0.0484461794187965,-16.1348932965909,83.1042047901821
25,3981.1,0.0465546976039424,-0.0103722409271825,0.0476961555143183,-12.5601793942675,84.8214097858465
26,3162.3,0.0466643732479216,-0.0078688593862098,0.0473231727450864,-9.57155395611847,86.552887781475
27,2511.9,0.0467850260799647,-0.00582927785690761,0.047146782982893,-7.10228503551417,88.3801937768615
28,1995.3,0.046964956911385,-0.00416246639354315,0.0471490541174012,-5.06484488599699,90.0924197725385
29,1584.9,0.0472031543531861,-0.00280523654639537,0.0472864370932294,-3.40103106407576,91.8135507681931
30,1258.9,0.047467764483845,-0.00170396168939448,0.0474983383975977,-2.05587752165398,93.530967763857
31,1000,0.0478947290372349,-0.000749465162008769,0.0479005925597922,-0.896501287628006,95.2423947595361
32,794.33,0.0482474855450317,-4.21456921366151E-05,0.0482475039528203,-0.0500496480304597,97.0631327549391
33,630.96,0.0484090422715299,0.000516003495594095,0.0484117922954132,0.610706212902402,98.8016127505499
34,501.19,0.048772901250325,0.000964944707332291,0.0487824457634318,1.13341724358608,100.525792746197
35,398.11,0.0491782585598255,0.00131818382950819,0.0491959218186369,1.53539983665669,102.230206741894
36,316.23,0.0495831188659944,0.00159267183915385,0.0496086915778532,1.83977958068776,103.956759737534
37,251.19,0.0500016285089932,0.00180009458166924,0.0500340203666897,2.06179883787985,105.709459733109
38,199.53,0.0503914543630457,0.00195940008656532,0.0504295342187706,2.2267431810909,107.435111728752
39,158.49,0.0507661274403044,0.00208361749702372,0.0508088688828941,2.3502978563224,109.181157724344
40,125.89,0.0511676235188202,0.00218162558968218,0.0512141112075303,2.44143206405884,111.010611719725
41,100,0.0515460809920119,0.00226891955373754,0.0515959926891264,2.52037886161071,112.781734715253
42,79.433,0.0518780705629316,0.00233128221772592,0.0519304253989046,2.57301066004431,114.60513271065
43,63.096,0.0522217687767453,0.00238897578451249,0.0522763841468673,2.61926909225037,116.48245570591
44,50.119,0.0525426094255504,0.00245731209743512,0.0526000398097771,2.67765720326936,118.582782700607
45,39.811,0.0528559526104351,0.00253949129049095,0.0529169230244073,2.75068980955253,120.530915695689
46,31.623,0.0531337672262334,0.00265179134218613,0.0531998986556746,2.8571377637924,122.55438569058
47,25.119,0.0534535852719226,0.00281183149329854,0.0535274898978964,3.01116798402962,124.658726685267
48,19.953,0.0537590292636516,0.00301364205439485,0.0538434328939209,3.20854822717268,126.959729679458
49,15.849,0.0541284789901355,0.00329156653062557,0.0542284671368376,3.47988569211471,129.306376673533
50,12.589,0.0545179182124089,0.00363922140781347,0.0546392472374025,3.81898565732444,131.780080667287
51,10,0.0549599507415297,0.00405231483681252,0.0551091411750176,4.21690989667626,134.474027660486
52,7.9433,0.0554849123056762,0.00452943156714315,0.0556694821593484,4.66691065730758,137.219883653553
53,6.3096,0.0561695791175407,0.00504815023490993,0.0563959700602436,5.13556828669656,140.054195646397
54,5.0119,0.0569777399155666,0.00558128849230751,0.0572504465233269,5.59459387467603,142.84938763934
55,3.9811,0.05792869862615,0.00608688400558253,0.0582476118086976,5.99836867223982,145.675712632204
56,3.1623,0.0590109477835294,0.00652007894731736,0.0593700546385944,6.3049972820164,148.59659562483
57,2.5119,0.0602086951816076,0.00684689078791783,0.0605967564225464,6.48776508354687,151.529514617425
58,1.9953,0.0614321278803831,0.00703570978103032,0.0618337088329224,6.53351451070518,154.622020609617
59,1.5849,0.0626838135532766,0.00708172442385998,0.0630825752676398,6.44567924510316,157.740345601744
60,1.2589,0.0638793277909145,0.00701017257003865,0.0642628278126697,6.26262813593799,161.060753593361
61,1,0.0650020560520428,0.00685890769091485,0.0653629245498196,6.02346501627242,164.710783584145
62,0.79433,0.0660127795772382,0.00665967514497081,0.0663478585980707,5.76077271727818,168.373790574897
63,0.63096,0.0669342243810051,0.00647190224666917,0.0672463821493557,5.52278815199053,172.308102564964
64,0.50119,0.0677820494522156,0.00636603824058131,0.0680803398259964,5.36543687041642,176.561736554224
65,0.39811,0.0684543155405777,0.00628658222810467,0.0687423772664264,5.24710687481006,181.284110542302
66,0.31623,0.0692231482441773,0.00631476338645024,0.0695105782558468,5.21228317231354,186.46927352921
67,0.25119,0.0699192072217871,0.00651082894753533,0.0702216948820467,5.32000240592342,192.259427514592
68,0.19953,0.0706459198533547,0.00670565417770175,0.0709634539032419,5.4222243577174,198.861554497923
69,0.15849,0.071289983676493,0.00708221083834038,0.0716409064917059,5.6733598815481,206.567307478468
70,0.12589,0.072070574911701,0.00763334523171363,0.0724736898986772,6.04593432253711,215.495244455927
71,0.1,0.0729391936216002,0.00818329271636926,0.0733968135946723,6.40143616126221,226.155323429013
