Index,Frequency (Hz),Z' (Ω),-Z'' (Ω),Z (Ω),-Phase (°),Time (s)
1,1000000,1.38855986146856,-1.62326687856818,2.13613994109424,-49.4559662444104,19.1141679517414
2,794330,0.985255625403472,-1.47723007021474,1.77565124045681,-56.2982379897716,22.4328869433624
3,630960,0.709439616917792,-1.28499714766961,1.46782909072259,-61.0971608486463,25.7583689349664
4,501190,0.504813424996883,-1.09104729682786,1.20217336435827,-65.1706319310281,29.0873239265616
5,398110,0.361422547578708,-0.909027807670598,0.978242205701991,-68.3176075372,32.3081199184298
6,316230,0.263175500372579,-0.748544157373377,0.793460584738887,-70.6291858061545,35.4412699105194
7,251190,0.195365380187307,-0.610738395545649,0.641224624893184,-72.2613626930004,38.5693939026216
8,199530,0.151728419927827,-0.496468911621313,0.519136681058318,-73.006053922745,40.3066978982354
9,158490,0.120807330912424,-0.402566877854148,0.420302869782518,-73.2958897005852,42.1559848935664
10,125890,0.0994609159876817,-0.32569017995646,0.340538642637191,-73.0181115106536,43.8531328892815
11,100000,0.0844729394993545,-0.263499424689979,0.276708554836332,-72.2251307636191,47.151481880954
12,79433,0.0738078174476665,-0.213063164915296,0.225485046422398,-70.8932572923348,48.784113876832
13,63096,0.0659859624600551,-0.172135328537567,0.184349446900488,-69.0262879975813,50.6024568722411
14,50119,0.0602206745914297,-0.139046320816293,0.151526924936772,-66.5826632013657,52.4215598676483
15,39811,0.0559023640259502,-0.112176220457333,0.125333869084865,-63.5108973316031,54.2789408629588
16,31623,0.0527221158773108,-0.0904633627972562,0.104705498953821,-59.7663355255843,56.0959508583713
17,25119,0.0500852647294161,-0.0725274184808356,0.088140570536558,-55.3722025617928,57.9035398538076
18,19953,0.0483309295775499,-0.0582848341254245,0.0757165810299061,-50.3338104095346,59.6254928494601
19,15849,0.0470330399809782,-0.046729068066134,0.0663001708307127,-44.8142506908414,61.3743278450447
20,12589,0.0461299632958829,-0.0374103262595779,0.0593928112192676,-39.0412477601641,63.1907198404588
21,10000,0.0453482055301219,-0.0298200525077205,0.054274259795647,-33.3281017721963,66.3102748325827
22,7943.3,0.0449316476965801,-0.0237087434862921,0.0508031247309493,-27.8189281210573,67.9791158283692
23,6309.6,0.0447042241046849,-0.0188020751921471,0.0484972750196652,-22.8110541846279,69.6999428240246
24,5011.9,0.0443293152281688,-0.0147647578524539,0.0467235086764678,-18.4213603080683,71.5227378194224
25,3981.1,0.0443123187085353,-0.0116114065139946,0.0458083655084968,-14.6834099847052,73.2749668149985
26,3162.3,0.0443211174312942,-0.00907361945831937,0.0452403804187471,-11.5699780854503,74.9665438107277
27,2511.9,0.0443560953712173,-0.00703662819294282,0.0449107707894915,-9.01425490027392,76.688957806379
28,1995.3,0.0444044068236365,-0.00539199703224648,0.0447305821262676,-6.92349131718253,78.3958948020694
29,1584.9,0.0444962238337324,-0.00407008052027797,0.0446819817253349,-5.22631554460674,80.1475877976468
30,1258.9,0.0446129214611844,-0.00301091732551884,0.0447144091366857,-3.86102587144374,81.8449527933614
31,1000,0.0448191215537997,-0.0021023622307721,0.0448684029557956,-2.68564503246914,83.5664827890149
32,794.33,0.0449902374132806,-0.00144179269350394,0.0450133338986838,-1.83551763296173,85.3847117844243
33,630.96,0.044951276461838,-0.000919199063311907,0.0449606737323473,-1.17146590712077,87.1048337800814
34,501.19,0.045108250016101,-0.000503241995235542,0.0451110570927001,-0.639183436178926,88.8672657756317
35,398.11,0.0452820248576057,-0.000171947652665827,0.0452823513214594,-0.217565965177335,90.5634907713492
36,316.23,0.0454274909443842,9.1883282803158E-05,0.0454275838675112,0.115888353590447,92.3156347669254
37,251.19,0.04558319289034,0.000305626687350947,0.0455842174633937,0.384151609121329,94.0753867624825
38,199.53,0.0457592207712377,0.000482162937704443,0.0457617609657819,0.603700818313161,95.7967667581364
39,158.49,0.0459181982383651,0.000639542906985979,0.0459226517591011,0.797956837513452,97.5492947537117
40,125.89,0.0460887042514704,0.000772615876146273,0.0460951797357552,0.960397641889198,99.356862749148
41,100,0.0462548644692124,0.00089569009837082,0.0462635358334999,1.10935033457105,101.13446074466
42,79.433,0.0464308168053366,0.00100150454620564,0.046441616687695,1.23566826867662,102.972633740019
43,63.096,0.0465939500719552,0.00110012489391289,0.0466069357294605,1.35255337170074,104.883963735193
44,50.119,0.0467680722741353,0.00119468227678065,0.0467833287612286,1.46329249886233,106.959097729954
45,39.811,0.0469436841004998,0.00129251330706042,0.0469614742909169,1.57714193102664,108.919579725005
46,31.623,0.0471463886301888,0.00138813168836326,0.0471668195923048,1.6864731095629,110.947147719885
47,25.119,0.0473872445541348,0.00148721879346917,0.0474105765222596,1.79760187111189,113.018306714656
48,19.953,0.0476267402148936,0.00156409902374735,0.047652416405184,1.8809617388828,115.2982837089
49,15.849,0.0479227402553946,0.00163915944931392,0.0479507651376523,1.95899312601275,117.638348702992
50,12.589,0.0482072667843103,0.00169138702926536,0.0482369294306388,2.00943983568609,120.021480696975
51,10,0.0485242703482317,0.00171902018760437,0.0485547097945572,2.02891108267058,122.702148690207
52,7.9433,0.0487860727000966,0.00171558057776492,0.0488162278982913,2.01399771661941,125.448175683274
53,6.3096,0.0490896751627844,0.00169121749212322,0.0491187990915225,1.97315045125129,128.248417676204
54,5.0119,0.0493240182558731,0.00165238226756916,0.0493516883608238,1.91872316776065,131.063936669095
55,3.9811,0.0495672388470015,0.00161390377374113,0.0495935061505697,1.86488536573283,133.87811266199
56,3.1623,0.0497540587759616,0.00157904999929004,0.0497791097106216,1.81779225796706,136.816679654571
57,2.5119,0.0499749794089178,0.00155823277106804,0.0499992665575265,1.78591859816244,139.818470646992
58,1.9953,0.050136725164908,0.00156253174808881,0.0501610677291194,1.78506884776134,142.910145639187
59,1.5849,0.0503078663565233,0.00158448132688918,0.0503328123436499,1.80397418015697,146.036578631293
60,1.2589,0.0504915896529727,0.00164418016515176,0.0505183526463369,1.86508898903308,149.326485622987
61,1,0.050653690469208,0.00173657207187321,0.0506834493766076,1.96351530690817,152.977705613768
62,0.79433,0.0508237510627712,0.00186083021302568,0.0508578053121864,2.0968565256915,156.626206604557
63,0.63096,0.0510243281537011,0.00202963425227799,0.0510646793658258,2.2778977233264,160.491477594798
64,0.50119,0.0512374470297629,0.00223986444452986,0.0512863819240315,2.50311304857435,164.745348584058
65,0.39811,0.0514630939900586,0.00251738330216406,0.0515246277203399,2.80046437200718,169.404276572295
66,0.31623,0.0517245535024794,0.00281541641944387,0.0518011197238605,3.11558907218042,174.57907455923
67,0.25119,0.0521044231559316,0.00315672571499655,0.0521999600541236,3.46700424259271,180.379702544585
68,0.19953,0.0524523439783783,0.00354933847858727,0.0525722949134019,3.87118201223426,186.982019527916
69,0.15849,0.0528397423938503,0.00397879431867333,0.0529893308174275,4.30620425589972,194.745126508316
70,0.12589,0.0532768325089698,0.00446116591080226,0.0534632853785897,4.78652842090624,203.708526485685
71,0.1,0.0537022513778344,0.00492859058334068,0.0539279408858369,5.24370164545765,214.34535645883
